Circuit: * C:\Users\UTSAV PATHAK\Desktop\Draft1.asc

Direct Newton iteration for .op point succeeded.
Semiconductor Device Operating Points:
                        --- VDMOSFET Transistors ---
Name:           m1
Model:     bsb014n04lx3
Id:          4.33e-04
Vgs:         2.40e+00
Vds:         4.80e+00
Vth:         2.89e+00
Gm:          8.63e-03
Gds:         2.72e-05
Cgs:         1.14e-08
Cgd:         6.66e-10
Cbody:       4.29e-09



Date: Sat Nov 07 13:47:05 2020
Total elapsed time: 0.072 seconds.

tnom = 27
temp = 27
method = trap
totiter = 6
traniter = 0
tranpoints = 0
accept = 0
rejected = 0
matrix size = 9
fillins = 4
solver = Normal
Matrix Compiler1: 688 bytes object code size
Matrix Compiler2: 783 bytes object code size
