Circuit: * C:\Users\UTSAV PATHAK\Desktop\ECDL_ASSIGNMNEN4_APNANAAM.asc

Direct Newton iteration for .op point succeeded.
Semiconductor Device Operating Points:
                        --- Bipolar Transistors ---
Name:       q2          q1
Model:      pnp         npn
Ib:      -2.64e-05    1.25e-05
Ic:      -2.64e-03    1.25e-03
Vbe:     -7.99e-01    7.80e-01
Vbc:      1.72e+00   -4.28e+00
Vce:     -2.52e+00    5.06e+00
BetaDC:   1.00e+02    1.00e+02
Gm:       1.02e-01    4.85e-02
Rpi:      9.78e+02    2.06e+03
Rx:       0.00e+00    0.00e+00
Ro:       1.88e+43    1.69e+86
Cbe:      0.00e+00    0.00e+00
Cbc:      0.00e+00    0.00e+00
Cjs:      0.00e+00    0.00e+00
BetaAC:   1.00e+02    1.00e+02
Cbx:      0.00e+00    0.00e+00
Ft:       0.00e+00    0.00e+00



Date: Sat Nov 07 13:34:30 2020
Total elapsed time: 0.061 seconds.

tnom = 27
temp = 27
method = trap
totiter = 7
traniter = 0
tranpoints = 0
accept = 0
rejected = 0
matrix size = 11
fillins = 0
solver = Normal
Matrix Compiler1: 502 bytes object code size
Matrix Compiler2: 799 bytes object code size
